
T279C8 000:320 SEGGER J-Link V4.96d Log File (0000ms, 0279ms total)
T279C8 000:320 DLL Compiled: Jan 29 2015 11:45:37 (0000ms, 0279ms total)
T279C8 000:320 Logging started @ 2019-05-10 14:33 (0000ms, 0279ms total)
T279C8 000:320 JLINK_SetWarnOutHandler(...) (0000ms, 0279ms total)
T279C8 000:320 JLINK_OpenEx(...)
Firmware: J-Link V9 compiled Oct 25 2018 11:46:07
Hardware: V9.40
S/N: 59405619
Feature(s): RDI, GDB, FlashDL, FlashBP, JFlash  returns O.K. (0276ms, 0555ms total)
T279C8 000:596 JLINK_SetErrorOutHandler(...) (0000ms, 0555ms total)
T279C8 000:596 JLINK_ExecCommand("ProjectFile = "D:\Tencent\wechat\WeChat Files\oasisinheart\Files\cnasic_sleep\cnasic_sleep\prj\keil\JLinkSettings.ini"", ...)Device "UNSPECIFIED" selected.  returns 0x00 (0001ms, 0556ms total)
T279C8 000:597 JLINK_ExecCommand("Device = ARMCM3", ...)Device "UNSPECIFIED" selected.  returns 0x00 (0001ms, 0557ms total)
T279C8 000:598 JLINK_ExecCommand("DisableConnectionTimeout", ...)  returns 0x01 (0000ms, 0557ms total)
T279C8 000:598 JLINK_GetHardwareVersion()  returns 0x16F30 (0000ms, 0557ms total)
T279C8 000:598 JLINK_GetDLLVersion()  returns 49604 (0000ms, 0557ms total)
T279C8 000:598 JLINK_GetFirmwareString(...) (0000ms, 0557ms total)
T279C8 000:599 JLINK_GetDLLVersion()  returns 49604 (0000ms, 0557ms total)
T279C8 000:599 JLINK_GetCompileDateTime() (0000ms, 0557ms total)
T279C8 000:602 JLINK_GetFirmwareString(...) (0000ms, 0557ms total)
T279C8 000:602 JLINK_GetHardwareVersion()  returns 0x16F30 (0000ms, 0557ms total)
T279C8 000:605 JLINK_TIF_Select(JLINKARM_TIF_SWD)  returns 0x00 (0000ms, 0557ms total)
T279C8 000:606 JLINK_SetSpeed(5000) (0000ms, 0558ms total)
T279C8 000:606 JLINK_GetId() >0x108 TIF>Found SWD-DP with ID 0x2BA01477 >0x0D TIF> >0x21 TIF> >0x0D TIF> >0x28 TIF> >0x0D TIF> >0x28 TIF> >0x0D TIF> >0x21 TIF> >0x0D TIF> >0x28 TIF> >0x0D TIF> >0x21 TIF> >0x0D TIF> >0x21 TIF> >0x0D TIF> >0x21 TIF> >0x0D TIF> >0x21 TIF> >0x0D TIF> >0x28 TIF> >0x0D TIF> >0x28 TIF> >0x0D TIF> >0x21 TIF> >0x0D TIF> >0x28 TIF> >0x0D TIF> >0x28 TIF> >0x0D TIF> >0x28 TIF> >0x0D TIF> >0x21 TIF> >0x0D TIF> >0x21 TIF> >0x0D TIF> >0x28 TIF> >0x0D TIF> >0x21 TIF> >0x0D TIF>
 >0x21 TIF>Found Cortex-M3 r2p1, Little endian. -- CPU_WriteMem(4 bytes @ 0xE0002000) -- CPU_ReadMem(4 bytes @ 0xE000EDF0) -- CPU_ReadMem(4 bytes @ 0xE0002000)FPUnit: 6 code (BP) slots and 2 literal slots -- CPU_ReadMem(4 bytes @ 0xE000EDFC) -- CPU_ReadMem(4 bytes @ 0xE0001000) -- CPU_WriteMem(4 bytes @ 0xE0001000) -- CPU_ReadMem(4 bytes @ 0xE000ED88) -- CPU_WriteMem(4 bytes @ 0xE000ED88) -- CPU_ReadMem(4 bytes @ 0xE000ED88) -- CPU_WriteMem(4 bytes @ 0xE000ED88) -- CPU_ReadMem(4 bytes @ 0xE00FF010)
TPIU fitted. -- CPU_ReadMem(4 bytes @ 0xE00FF014)ETM fitted. -- CPU_ReadMem(4 bytes @ 0xE00FF018) >0x0D TIF> >0x21 TIF>  returns 0x2BA01477 (0017ms, 0575ms total)
T279C8 000:623 JLINK_GetDLLVersion()  returns 49604 (0000ms, 0575ms total)
T279C8 000:623 JLINK_CORE_GetFound()  returns 0x30000FF (0000ms, 0575ms total)
T279C8 000:623 JLINK_GetDebugInfo(0x100) -- Value=0xE00FF003  returns 0x00 (0000ms, 0575ms total)
T279C8 000:623 JLINK_ReadMem (0xE00FF000, 0x0020 Bytes, ...) -- CPU is running -- CPU_ReadMem(32 bytes @ 0xE00FF000) - Data: 03 F0 F0 FF 03 20 F0 FF 03 30 F0 FF 03 10 F0 FF ...  returns 0x00 (0000ms, 0575ms total)
T279C8 000:624 JLINK_ReadMem (0xE000EFF0, 0x0010 Bytes, ...) -- CPU is running -- CPU_ReadMem(16 bytes @ 0xE000EFF0) - Data: 0D 00 00 00 E0 00 00 00 05 00 00 00 B1 00 00 00  returns 0x00 (0000ms, 0575ms total)
T279C8 000:624 JLINK_ReadMem (0xE000EFD0, 0x0020 Bytes, ...) -- CPU is running -- CPU_ReadMem(32 bytes @ 0xE000EFD0) - Data: 04 00 00 00 00 00 00 00 00 00 00 00 00 00 00 00 ...  returns 0x00 (0000ms, 0575ms total)
T279C8 000:624 JLINK_ReadMem (0xE0001FF0, 0x0010 Bytes, ...) -- CPU is running -- CPU_ReadMem(16 bytes @ 0xE0001FF0) - Data: 0D 00 00 00 E0 00 00 00 05 00 00 00 B1 00 00 00  returns 0x00 (0001ms, 0576ms total)
T279C8 000:625 JLINK_ReadMem (0xE0001FD0, 0x0020 Bytes, ...) -- CPU is running -- CPU_ReadMem(32 bytes @ 0xE0001FD0) - Data: 04 00 00 00 00 00 00 00 00 00 00 00 00 00 00 00 ...  returns 0x00 (0000ms, 0576ms total)
T279C8 000:625 JLINK_ReadMem (0xE0002FF0, 0x0010 Bytes, ...) -- CPU is running -- CPU_ReadMem(16 bytes @ 0xE0002FF0) - Data: 0D 00 00 00 E0 00 00 00 05 00 00 00 B1 00 00 00  returns 0x00 (0001ms, 0577ms total)
T279C8 000:626 JLINK_ReadMem (0xE0002FD0, 0x0020 Bytes, ...) -- CPU is running -- CPU_ReadMem(32 bytes @ 0xE0002FD0) - Data: 04 00 00 00 00 00 00 00 00 00 00 00 00 00 00 00 ...  returns 0x00 (0000ms, 0577ms total)
T279C8 000:626 JLINK_ReadMem (0xE0000FF0, 0x0010 Bytes, ...) -- CPU is running -- CPU_ReadMem(16 bytes @ 0xE0000FF0) - Data: 0D 00 00 00 E0 00 00 00 05 00 00 00 B1 00 00 00  returns 0x00 (0001ms, 0578ms total)
T279C8 000:627 JLINK_ReadMem (0xE0000FD0, 0x0020 Bytes, ...) -- CPU is running -- CPU_ReadMem(32 bytes @ 0xE0000FD0) - Data: 04 00 00 00 00 00 00 00 00 00 00 00 00 00 00 00 ...  returns 0x00 (0000ms, 0578ms total)
T279C8 000:627 JLINK_ReadMem (0xE0040FF0, 0x0010 Bytes, ...) -- CPU is running -- CPU_ReadMem(16 bytes @ 0xE0040FF0) - Data: 0D 00 00 00 90 00 00 00 05 00 00 00 B1 00 00 00  returns 0x00 (0001ms, 0579ms total)
T279C8 000:628 JLINK_ReadMem (0xE0040FD0, 0x0020 Bytes, ...) -- CPU is running -- CPU_ReadMem(32 bytes @ 0xE0040FD0) - Data: 04 00 00 00 00 00 00 00 00 00 00 00 00 00 00 00 ...  returns 0x00 (0000ms, 0579ms total)
T279C8 000:628 JLINK_ReadMem (0xE0041FF0, 0x0010 Bytes, ...) -- CPU is running -- CPU_ReadMem(16 bytes @ 0xE0041FF0) - Data: 0D 00 00 00 90 00 00 00 05 00 00 00 B1 00 00 00  returns 0x00 (0000ms, 0579ms total)
T279C8 000:628 JLINK_ReadMem (0xE0041FD0, 0x0020 Bytes, ...) -- CPU is running -- CPU_ReadMem(32 bytes @ 0xE0041FD0) - Data: 04 00 00 00 00 00 00 00 00 00 00 00 00 00 00 00 ...  returns 0x00 (0001ms, 0580ms total)
T279C8 000:629 JLINK_ReadMemU32(0xE000ED00, 0x0001 Items, ...) -- CPU is running -- CPU_ReadMem(4 bytes @ 0xE000ED00) - Data: 31 C2 2F 41  returns 0x01 (0000ms, 0580ms total)
T279C8 000:629 JLINK_SetResetType(JLINKARM_RESET_TYPE_BP0)  returns JLINKARM_RESET_TYPE_NORMAL (0000ms, 0580ms total)
T279C8 000:629 JLINK_Reset() -- CPU is running -- CPU_WriteMem(4 bytes @ 0xE000EDFC) -- CPU is running -- CPU_WriteMem(4 bytes @ 0xE000ED0C) -- CPU is running -- CPU_ReadMem(4 bytes @ 0xE000EDF0) -- CPU is running -- CPU_ReadMem(4 bytes @ 0xE000EDF0) -- CPU is running -- CPU_WriteMem(4 bytes @ 0xE000EDF0) -- CPU is running -- CPU_WriteMem(4 bytes @ 0xE000EDFC) -- CPU is running -- CPU_ReadMem(4 bytes @ 0xE000EDF0)T-bit of XPSR is 0 but should be 1. Changed to 1. -- CPU_WriteMem(4 bytes @ 0xE0002000)
 -- CPU_ReadMem(4 bytes @ 0xE000EDFC) -- CPU_ReadMem(4 bytes @ 0xE0001000) (0016ms, 0596ms total)
T279C8 000:645 JLINK_ReadReg(R15 (PC))  returns 0x00000000 (0000ms, 0596ms total)
T279C8 000:645 JLINK_ReadReg(XPSR)  returns 0x01000000 (0000ms, 0596ms total)
T279C8 000:645 JLINK_Halt()  returns 0x00 (0000ms, 0596ms total)
T279C8 000:645 JLINK_IsHalted()  returns TRUE (0000ms, 0596ms total)
T279C8 000:645 JLINK_ReadMemU32(0xE000EDF0, 0x0001 Items, ...) -- CPU_ReadMem(4 bytes @ 0xE000EDF0) - Data: 03 00 03 00  returns 0x01 (0001ms, 0597ms total)
T279C8 000:646 JLINK_WriteU32(0xE000EDF0, 0xA05F0003) -- CPU_WriteMem(4 bytes @ 0xE000EDF0)  returns 0x00 (0000ms, 0597ms total)
T279C8 000:646 JLINK_WriteU32(0xE000EDFC, 0x01000000) -- CPU_WriteMem(4 bytes @ 0xE000EDFC)  returns 0x00 (0000ms, 0597ms total)
T279C8 000:648 JLINK_GetHWStatus(...)  returns 0x00 (0000ms, 0597ms total)
T279C8 000:648 JLINK_GetNumBPUnits(Type = 0xFFFFFF00)  returns 0x06 (0000ms, 0597ms total)
T279C8 000:648 JLINK_GetNumBPUnits(Type = 0xF0)  returns 0x2000 (0000ms, 0597ms total)
T279C8 000:648 JLINK_GetNumWPUnits()  returns 0x04 (0000ms, 0597ms total)
T279C8 000:649 JLINK_GetSpeed()  returns 0xFA0 (0000ms, 0597ms total)
T279C8 000:649 JLINK_ReadMemU32(0xE000E004, 0x0001 Items, ...) -- CPU_ReadMem(4 bytes @ 0xE000E004) - Data: 01 00 00 00  returns 0x01 (0000ms, 0597ms total)
T279C8 000:649 JLINK_ReadMemU32(0xE000E004, 0x0001 Items, ...) -- CPU_ReadMem(4 bytes @ 0xE000E004) - Data: 01 00 00 00  returns 0x01 (0001ms, 0598ms total)
T279C8 000:650 JLINK_WriteMem(0xE0001000, 0x001C Bytes, ...) - Data: 01 00 00 00 00 00 00 00 00 00 00 00 00 00 00 00 ... -- CPU_WriteMem(28 bytes @ 0xE0001000)  returns 0x1C (0001ms, 0599ms total)
T279C8 000:651 JLINK_ReadMem (0xE0001000, 0x001C Bytes, ...) -- CPU_ReadMem(28 bytes @ 0xE0001000) - Data: 01 00 00 40 00 00 00 00 00 00 00 00 00 00 00 00 ...  returns 0x00 (0000ms, 0599ms total)
T279C8 000:651 JLINK_ReadReg(R15 (PC))  returns 0x00000000 (0000ms, 0599ms total)
T279C8 000:651 JLINK_ReadReg(XPSR)  returns 0x01000000 (0000ms, 0599ms total)
T279C8 000:677 JLINK_WriteMem(0x00000000, 0x0240 Bytes, ...) - Data: 70 08 01 20 FD 00 00 00 00 00 00 00 00 00 00 00 ... -- CPU_WriteMem(576 bytes @ 0x00000000)  returns 0x240 (0003ms, 0602ms total)
T279C8 000:734 JLINK_SetResetType(JLINKARM_RESET_TYPE_BP0)  returns JLINKARM_RESET_TYPE_BP0 (0000ms, 0602ms total)
T279C8 000:734 JLINK_Reset() -- CPU_WriteMem(4 bytes @ 0xE000EDFC) -- CPU_WriteMem(4 bytes @ 0xE000ED0C) -- CPU_ReadMem(4 bytes @ 0xE000EDF0) -- CPU_ReadMem(4 bytes @ 0xE000EDF0) -- CPU_WriteMem(4 bytes @ 0xE000EDF0) -- CPU_WriteMem(4 bytes @ 0xE000EDFC) -- CPU is running -- CPU_ReadMem(4 bytes @ 0xE000EDF0) -- CPU_WriteMem(4 bytes @ 0xE0002000) -- CPU_ReadMem(4 bytes @ 0xE000EDFC) -- CPU_ReadMem(4 bytes @ 0xE0001000) (0016ms, 0618ms total)
T279C8 000:750 JLINK_ReadReg(R15 (PC))  returns 0x000000FC (0000ms, 0618ms total)
T279C8 000:750 JLINK_ReadReg(XPSR)  returns 0x01000000 (0000ms, 0618ms total)
T279C8 000:750 JLINK_ReadMem (0x000000FC, 0x003C Bytes, ...) -- CPU_ReadMem(60 bytes @ 0x000000FC) - Data: 04 48 00 47 FE E7 FE E7 03 48 04 49 04 4A 05 4B ...  returns 0x00 (0001ms, 0619ms total)
T279C8 002:372 JLINK_ReadMem (0x00000000, 0x00E7 Bytes, ...) -- CPU_ReadMem(231 bytes @ 0x00000000) - Data: 70 08 01 20 FD 00 00 00 00 00 00 00 00 00 00 00 ...  returns 0x00 (0002ms, 0621ms total)
T279C8 003:041 JLINK_ReadMem (0x20014000, 0x00E7 Bytes, ...) -- CPU_ReadMem(231 bytes @ 0x20014000) - Data: 00 00 00 00 00 00 00 00 00 00 00 00 00 00 00 00 ...  returns 0x00 (0002ms, 0623ms total)
T279C8 003:043 JLINK_ReadMem (0x00000000, 0x0134 Bytes, ...) -- CPU_ReadMem(308 bytes @ 0x00000000) - Data: 70 08 01 20 FD 00 00 00 00 00 00 00 00 00 00 00 ...  returns 0x00 (0002ms, 0625ms total)
T279C8 003:045 JLINK_ReadMem (0x20014000, 0x0134 Bytes, ...) -- CPU_ReadMem(308 bytes @ 0x20014000) - Data: 00 00 00 00 00 00 00 00 00 00 00 00 00 00 00 00 ...  returns 0x00 (0002ms, 0627ms total)
T279C8 003:048 JLINK_ReadMem (0x40005000, 0x0134 Bytes, ...) -- CPU_ReadMem(308 bytes @ 0x40005000) - Data: 00 00 00 00 00 00 00 00 00 00 00 00 00 00 00 00 ...  returns 0x00 (0001ms, 0628ms total)
T279C8 003:050 JLINK_ReadMem (0x40005000, 0x0134 Bytes, ...) -- CPU_ReadMem(308 bytes @ 0x40005000) - Data: 00 00 00 00 00 00 00 00 00 00 00 00 00 00 00 00 ...  returns 0x00 (0001ms, 0629ms total)
T2A8BC 003:068 JLINK_SetBPEx(Addr = 0x000001A8, Type = 0xFFFFFFF2)  returns 0x00000001 (0000ms, 0629ms total)
T2A8BC 003:068 JLINK_SetBPEx(Addr = 0x000001E6, Type = 0xFFFFFFF2)  returns 0x00000002 (0000ms, 0629ms total)
T2A8BC 003:068 JLINK_Go() -- CPU_WriteMem(4 bytes @ 0xE0002000) -- CPU_WriteMem(4 bytes @ 0xE0002000) -- CPU_WriteMem(4 bytes @ 0xE0002008) -- CPU_WriteMem(4 bytes @ 0xE000200C) -- CPU_WriteMem(4 bytes @ 0xE0002010) -- CPU_WriteMem(4 bytes @ 0xE0002014) -- CPU_WriteMem(4 bytes @ 0xE0002018) -- CPU_WriteMem(4 bytes @ 0xE000201C) -- CPU_WriteMem(4 bytes @ 0xE0001004) (0004ms, 0633ms total)
T2A8BC 003:174 JLINK_IsHalted()  returns TRUE (0002ms, 0635ms total)
T2A8BC 003:176 JLINK_Halt()  returns 0x00 (0000ms, 0633ms total)
T2A8BC 003:176 JLINK_IsHalted()  returns TRUE (0000ms, 0633ms total)
T2A8BC 003:176 JLINK_IsHalted()  returns TRUE (0000ms, 0633ms total)
T2A8BC 003:176 JLINK_IsHalted()  returns TRUE (0000ms, 0633ms total)
T2A8BC 003:176 JLINK_ReadReg(R15 (PC))  returns 0x000001A8 (0000ms, 0633ms total)
T2A8BC 003:176 JLINK_ReadReg(XPSR)  returns 0x21000000 (0000ms, 0633ms total)
T2A8BC 003:176 JLINK_ClrBPEx(BPHandle = 0x00000001)  returns 0x00 (0000ms, 0633ms total)
T2A8BC 003:176 JLINK_ClrBPEx(BPHandle = 0x00000002)  returns 0x00 (0000ms, 0633ms total)
T2A8BC 003:176 JLINK_ReadMemU32(0xE000ED30, 0x0001 Items, ...) -- CPU_ReadMem(4 bytes @ 0xE000ED30) - Data: 02 00 00 00  returns 0x01 (0000ms, 0633ms total)
T2A8BC 003:176 JLINK_ReadMemU32(0xE0001028, 0x0001 Items, ...) -- CPU_ReadMem(4 bytes @ 0xE0001028) - Data: 00 00 00 00  returns 0x01 (0001ms, 0634ms total)
T2A8BC 003:177 JLINK_ReadMemU32(0xE0001038, 0x0001 Items, ...) -- CPU_ReadMem(4 bytes @ 0xE0001038) - Data: 00 02 00 00  returns 0x01 (0000ms, 0634ms total)
T2A8BC 003:177 JLINK_ReadMemU32(0xE0001048, 0x0001 Items, ...) -- CPU_ReadMem(4 bytes @ 0xE0001048) - Data: 00 00 00 00  returns 0x01 (0000ms, 0634ms total)
T2A8BC 003:177 JLINK_ReadMemU32(0xE0001058, 0x0001 Items, ...) -- CPU_ReadMem(4 bytes @ 0xE0001058) - Data: 00 00 00 00  returns 0x01 (0001ms, 0635ms total)
T2A8BC 003:178 JLINK_ReadReg(R0)  returns 0x20010070 (0000ms, 0635ms total)
T2A8BC 003:178 JLINK_ReadReg(R1)  returns 0x20010470 (0000ms, 0635ms total)
T2A8BC 003:178 JLINK_ReadReg(R2)  returns 0x20010470 (0000ms, 0635ms total)
T2A8BC 003:178 JLINK_ReadReg(R3)  returns 0x20010470 (0000ms, 0635ms total)
T2A8BC 003:178 JLINK_ReadReg(R4)  returns 0x00000000 (0000ms, 0635ms total)
T2A8BC 003:178 JLINK_ReadReg(R5)  returns 0x2001000C (0000ms, 0635ms total)
T2A8BC 003:178 JLINK_ReadReg(R6)  returns 0x00000000 (0000ms, 0635ms total)
T2A8BC 003:178 JLINK_ReadReg(R7)  returns 0x00000000 (0000ms, 0635ms total)
T2A8BC 003:178 JLINK_ReadReg(R8)  returns 0x00000000 (0000ms, 0635ms total)
T2A8BC 003:178 JLINK_ReadReg(R9)  returns 0x00000000 (0000ms, 0635ms total)
T2A8BC 003:178 JLINK_ReadReg(R10)  returns 0x00000234 (0000ms, 0635ms total)
T2A8BC 003:178 JLINK_ReadReg(R11)  returns 0x00000000 (0000ms, 0635ms total)
T2A8BC 003:178 JLINK_ReadReg(R12)  returns 0x2001004C (0000ms, 0635ms total)
T2A8BC 003:178 JLINK_ReadReg(R13 (SP))  returns 0x20010870 (0000ms, 0635ms total)
T2A8BC 003:178 JLINK_ReadReg(R14)  returns 0x000000ED (0000ms, 0635ms total)
T2A8BC 003:178 JLINK_ReadReg(R15 (PC))  returns 0x000001A8 (0000ms, 0635ms total)
T2A8BC 003:178 JLINK_ReadReg(XPSR)  returns 0x21000000 (0000ms, 0635ms total)
T2A8BC 003:178 JLINK_ReadReg(MSP)  returns 0x20010870 (0000ms, 0635ms total)
T2A8BC 003:178 JLINK_ReadReg(PSP)  returns 0x00000000 (0000ms, 0635ms total)
T2A8BC 003:178 JLINK_ReadReg(CFBP)  returns 0x00000000 (0000ms, 0635ms total)
T279C8 003:179 JLINK_ReadMem (0x2001085C, 0x0010 Bytes, ...) -- CPU_ReadMem(16 bytes @ 0x2001085C) - Data: 70 04 01 20 70 04 01 20 70 04 01 20 00 00 00 00  returns 0x00 (0000ms, 0635ms total)
T279C8 003:179 JLINK_ReadMem (0x00000000, 0x0004 Bytes, ...) -- CPU_ReadMem(64 bytes @ 0x00000000) -- Updating DA cache (64 bytes @ 0x00000000) -- Read from DA cache (4 bytes @ 0x00000000) - Data: 70 08 01 20  returns 0x00 (0001ms, 0636ms total)
T279C8 003:181 JLINK_ReadMemU32(0xE0001004, 0x0001 Items, ...) -- CPU_ReadMem(4 bytes @ 0xE0001004) - Data: A4 00 00 00  returns 0x01 (0001ms, 0637ms total)
T279C8 003:191 JLINK_ReadMem (0x00000080, 0x003C Bytes, ...) -- CPU_ReadMem(64 bytes @ 0x00000080) -- Updating DA cache (64 bytes @ 0x00000080) -- Read from DA cache (60 bytes @ 0x00000080) - Data: 00 F0 02 F8 00 F0 2B F8 0A A0 90 E8 00 0C 82 44 ...  returns 0x00 (0001ms, 0638ms total)
T279C8 003:192 JLINK_ReadMem (0x000000BC, 0x003C Bytes, ...) -- CPU_ReadMem(64 bytes @ 0x000000C0) -- Updating DA cache (64 bytes @ 0x000000C0) -- Read from DA cache (60 bytes @ 0x000000BC) - Data: 10 3A 24 BF 78 C8 78 C1 FA D8 52 07 24 BF 30 C8 ...  returns 0x00 (0001ms, 0639ms total)
T279C8 003:193 JLINK_ReadMem (0x000000F8, 0x003C Bytes, ...) -- CPU_ReadMem(64 bytes @ 0x00000100) -- Updating DA cache (64 bytes @ 0x00000100) -- Read from DA cache (60 bytes @ 0x000000F8) - Data: 00 F0 46 F8 04 48 00 47 FE E7 FE E7 03 48 04 49 ...  returns 0x00 (0000ms, 0639ms total)
T279C8 003:193 JLINK_ReadMem (0x00000134, 0x003C Bytes, ...) -- CPU_ReadMem(64 bytes @ 0x00000140) -- Updating DA cache (64 bytes @ 0x00000140) -- Read from DA cache (60 bytes @ 0x00000134) - Data: 69 46 53 46 20 F0 07 00 85 46 18 B0 20 B5 FF F7 ...  returns 0x00 (0001ms, 0640ms total)
T279C8 003:194 JLINK_ReadMem (0x00000170, 0x003C Bytes, ...) -- CPU_ReadMem(64 bytes @ 0x00000180) -- Updating DA cache (64 bytes @ 0x00000180) -- Read from DA cache (60 bytes @ 0x00000170) - Data: 8D 46 70 47 04 46 AF F3 00 80 20 46 FF F7 B8 FF ...  returns 0x00 (0000ms, 0640ms total)
T279C8 003:194 JLINK_ReadMem (0x000001AC, 0x003C Bytes, ...) -- CPU_ReadMem(64 bytes @ 0x000001C0) -- Updating DA cache (64 bytes @ 0x000001C0) -- Read from DA cache (60 bytes @ 0x000001AC) - Data: F0 CF 8D E8 F0 00 00 21 15 48 40 F2 16 54 04 60 ...  returns 0x00 (0001ms, 0641ms total)
T279C8 003:232 JLINK_ReadMem (0x00000202, 0x0002 Bytes, ...) -- CPU_ReadMem(64 bytes @ 0x00000200) -- Updating DA cache (64 bytes @ 0x00000200) -- Read from DA cache (2 bytes @ 0x00000202) - Data: 49 1C  returns 0x00 (0000ms, 0641ms total)
T279C8 003:232 JLINK_ReadMem (0x00000204, 0x003C Bytes, ...) -- Read from DA cache (60 bytes @ 0x00000204) - Data: F3 E7 00 00 14 02 00 00 10 50 00 40 04 40 00 40 ...  returns 0x00 (0000ms, 0641ms total)
T2A8BC 240:450 JLINK_SetBPEx(Addr = 0x000001E6, Type = 0xFFFFFFF2)  returns 0x00000003 (0000ms, 0641ms total)
T2A8BC 240:450 JLINK_Go() -- CPU_WriteMem(4 bytes @ 0xE0002000) -- CPU_WriteMem(4 bytes @ 0xE0002008) -- CPU_WriteMem(4 bytes @ 0xE000200C) (0002ms, 0643ms total)
T2A8BC 240:553 JLINK_IsHalted()  returns TRUE (0002ms, 0645ms total)
T2A8BC 240:555 JLINK_Halt()  returns 0x00 (0000ms, 0643ms total)
T2A8BC 240:555 JLINK_IsHalted()  returns TRUE (0000ms, 0643ms total)
T2A8BC 240:555 JLINK_IsHalted()  returns TRUE (0000ms, 0643ms total)
T2A8BC 240:555 JLINK_IsHalted()  returns TRUE (0000ms, 0643ms total)
T2A8BC 240:555 JLINK_ReadReg(R15 (PC))  returns 0x000001E6 (0000ms, 0643ms total)
T2A8BC 240:555 JLINK_ReadReg(XPSR)  returns 0x61000000 (0000ms, 0643ms total)
T2A8BC 240:555 JLINK_ClrBPEx(BPHandle = 0x00000003)  returns 0x00 (0000ms, 0643ms total)
T2A8BC 240:555 JLINK_ReadMemU32(0xE000ED30, 0x0001 Items, ...) -- CPU_ReadMem(4 bytes @ 0xE000ED30) - Data: 02 00 00 00  returns 0x01 (0001ms, 0644ms total)
T2A8BC 240:556 JLINK_ReadMemU32(0xE0001028, 0x0001 Items, ...) -- CPU_ReadMem(4 bytes @ 0xE0001028) - Data: 00 00 00 00  returns 0x01 (0000ms, 0644ms total)
T2A8BC 240:556 JLINK_ReadMemU32(0xE0001038, 0x0001 Items, ...) -- CPU_ReadMem(4 bytes @ 0xE0001038) - Data: 00 02 00 00  returns 0x01 (0000ms, 0644ms total)
T2A8BC 240:556 JLINK_ReadMemU32(0xE0001048, 0x0001 Items, ...) -- CPU_ReadMem(4 bytes @ 0xE0001048) - Data: 00 00 00 00  returns 0x01 (0001ms, 0645ms total)
T2A8BC 240:557 JLINK_ReadMemU32(0xE0001058, 0x0001 Items, ...) -- CPU_ReadMem(4 bytes @ 0xE0001058) - Data: 00 00 00 00  returns 0x01 (0000ms, 0645ms total)
T2A8BC 240:557 JLINK_ReadReg(R0)  returns 0x40005000 (0000ms, 0645ms total)
T2A8BC 240:557 JLINK_ReadReg(R1)  returns 0x0000000F (0000ms, 0645ms total)
T2A8BC 240:557 JLINK_ReadReg(R2)  returns 0x20010470 (0000ms, 0645ms total)
T2A8BC 240:557 JLINK_ReadReg(R3)  returns 0x00000000 (0000ms, 0645ms total)
T2A8BC 240:557 JLINK_ReadReg(R4)  returns 0x00000000 (0000ms, 0645ms total)
T2A8BC 240:557 JLINK_ReadReg(R5)  returns 0x6F77206F (0000ms, 0645ms total)
T2A8BC 240:557 JLINK_ReadReg(R6)  returns 0x21646C72 (0000ms, 0645ms total)
T2A8BC 240:557 JLINK_ReadReg(R7)  returns 0x00000000 (0000ms, 0645ms total)
T2A8BC 240:557 JLINK_ReadReg(R8)  returns 0x00000000 (0000ms, 0645ms total)
T2A8BC 240:557 JLINK_ReadReg(R9)  returns 0x00000000 (0001ms, 0646ms total)
T2A8BC 240:558 JLINK_ReadReg(R10)  returns 0x00000234 (0000ms, 0646ms total)
T2A8BC 240:558 JLINK_ReadReg(R11)  returns 0x00000000 (0000ms, 0646ms total)
T2A8BC 240:558 JLINK_ReadReg(R12)  returns 0x2001004C (0000ms, 0646ms total)
T2A8BC 240:558 JLINK_ReadReg(R13 (SP))  returns 0x2001085C (0000ms, 0646ms total)
T2A8BC 240:558 JLINK_ReadReg(R14)  returns 0x000000ED (0000ms, 0646ms total)
T2A8BC 240:558 JLINK_ReadReg(R15 (PC))  returns 0x000001E6 (0000ms, 0646ms total)
T2A8BC 240:558 JLINK_ReadReg(XPSR)  returns 0x61000000 (0000ms, 0646ms total)
T2A8BC 240:558 JLINK_ReadReg(MSP)  returns 0x2001085C (0000ms, 0646ms total)
T2A8BC 240:558 JLINK_ReadReg(PSP)  returns 0x00000000 (0000ms, 0646ms total)
T2A8BC 240:558 JLINK_ReadReg(CFBP)  returns 0x00000000 (0000ms, 0646ms total)
T279C8 240:558 JLINK_ReadMem (0x2001086C, 0x0004 Bytes, ...) -- CPU_ReadMem(4 bytes @ 0x2001086C) - Data: ED 00 00 00  returns 0x00 (0000ms, 0646ms total)
T279C8 240:558 JLINK_ReadMem (0x2001085C, 0x0010 Bytes, ...) -- CPU_ReadMem(16 bytes @ 0x2001085C) - Data: 68 65 6C 6C 6F 20 77 6F 72 6C 64 21 00 00 00 00  returns 0x00 (0001ms, 0647ms total)
T279C8 240:559 JLINK_ReadMemU32(0xE0001004, 0x0001 Items, ...) -- CPU_ReadMem(4 bytes @ 0xE0001004) - Data: 60 96 02 00  returns 0x01 (0000ms, 0647ms total)
T279C8 240:565 JLINK_ReadMem (0x000001E0, 0x003C Bytes, ...) -- CPU_ReadMem(128 bytes @ 0x000001C0) -- Updating DA cache (128 bytes @ 0x000001C0) -- Read from DA cache (60 bytes @ 0x000001E0) - Data: 49 1C 0F 29 F0 DB 0A 48 FF 24 04 60 0A E0 4F F0 ...  returns 0x00 (0001ms, 0648ms total)
T279C8 251:700 JLINK_ReadMem (0x00000000, 0x0084 Bytes, ...) -- CPU_ReadMem(192 bytes @ 0x00000000) -- Updating DA cache (192 bytes @ 0x00000000) -- Read from DA cache (132 bytes @ 0x00000000) - Data: 70 08 01 20 FD 00 00 00 00 00 00 00 00 00 00 00 ...  returns 0x00 (0001ms, 0649ms total)
T279C8 251:703 JLINK_ReadMem (0x20014000, 0x0084 Bytes, ...) -- CPU_ReadMem(132 bytes @ 0x20014000) - Data: 00 00 00 00 00 00 00 00 00 00 00 00 00 00 00 00 ...  returns 0x00 (0001ms, 0650ms total)
T279C8 251:706 JLINK_ReadMem (0x40005000, 0x0084 Bytes, ...) -- CPU_ReadMem(132 bytes @ 0x40005000) - Data: 00 00 00 00 00 00 00 00 05 00 00 00 01 00 00 00 ...  returns 0x00 (0001ms, 0651ms total)
T279C8 251:710 JLINK_ReadMem (0x40005000, 0x0084 Bytes, ...) -- CPU_ReadMem(132 bytes @ 0x40005000) - Data: 00 00 00 00 00 00 00 00 05 00 00 00 01 00 00 00 ...  returns 0x00 (0001ms, 0652ms total)
T279C8 264:004 JLINK_SetResetType(JLINKARM_RESET_TYPE_BP0)  returns JLINKARM_RESET_TYPE_BP0 (0000ms, 0652ms total)
T279C8 264:004 JLINK_Reset() -- CPU_WriteMem(4 bytes @ 0xE000EDFC) -- CPU_WriteMem(4 bytes @ 0xE000ED0C) -- CPU_ReadMem(4 bytes @ 0xE000EDF0) -- CPU_ReadMem(4 bytes @ 0xE000EDF0) -- CPU_WriteMem(4 bytes @ 0xE000EDF0) -- CPU_WriteMem(4 bytes @ 0xE000EDFC) -- CPU is running -- CPU_ReadMem(4 bytes @ 0xE000EDF0) -- CPU_WriteMem(4 bytes @ 0xE0002000) -- CPU_ReadMem(4 bytes @ 0xE000EDFC) -- CPU_ReadMem(4 bytes @ 0xE0001000) (0017ms, 0669ms total)
T279C8 264:021 JLINK_ReadReg(R15 (PC))  returns 0x000000FC (0000ms, 0669ms total)
T279C8 264:021 JLINK_ReadReg(XPSR)  returns 0x01000000 (0000ms, 0669ms total)
T279C8 264:021 JLINK_ReadMemU32(0xE0001004, 0x0001 Items, ...) -- CPU_ReadMem(4 bytes @ 0xE0001004) - Data: 68 96 02 00  returns 0x01 (0000ms, 0669ms total)
T279C8 264:025 JLINK_ReadMem (0x00000080, 0x003C Bytes, ...) -- CPU_ReadMem(60 bytes @ 0x00000080) - Data: 00 F0 02 F8 00 F0 2B F8 0A A0 90 E8 00 0C 82 44 ...  returns 0x00 (0001ms, 0670ms total)
T279C8 264:026 JLINK_ReadMem (0x000000BC, 0x003C Bytes, ...) -- CPU_ReadMem(60 bytes @ 0x000000BC) - Data: 10 3A 24 BF 78 C8 78 C1 FA D8 52 07 24 BF 30 C8 ...  returns 0x00 (0000ms, 0670ms total)
T279C8 264:026 JLINK_ReadMem (0x000000F8, 0x003C Bytes, ...) -- CPU_ReadMem(60 bytes @ 0x000000F8) - Data: 00 F0 46 F8 04 48 00 47 FE E7 FE E7 03 48 04 49 ...  returns 0x00 (0001ms, 0671ms total)
T2A8BC 270:874 JLINK_SetBPEx(Addr = 0x000001E6, Type = 0xFFFFFFF2)  returns 0x00000004 (0001ms, 0672ms total)
T2A8BC 270:875 JLINK_SetBPEx(Addr = 0x000001D6, Type = 0xFFFFFFF2)  returns 0x00000005 (0000ms, 0672ms total)
T2A8BC 270:875 JLINK_Go() -- CPU_WriteMem(4 bytes @ 0xE0002000) -- CPU_WriteMem(4 bytes @ 0xE0002000) -- CPU_WriteMem(4 bytes @ 0xE0002008) -- CPU_WriteMem(4 bytes @ 0xE000200C) -- CPU_WriteMem(4 bytes @ 0xE0002010) -- CPU_WriteMem(4 bytes @ 0xE0002014) -- CPU_WriteMem(4 bytes @ 0xE0002018) -- CPU_WriteMem(4 bytes @ 0xE000201C) -- CPU_WriteMem(4 bytes @ 0xE0001004) (0002ms, 0674ms total)
T2A8BC 270:978 JLINK_IsHalted()  returns TRUE (0002ms, 0676ms total)
T2A8BC 270:980 JLINK_Halt()  returns 0x00 (0000ms, 0674ms total)
T2A8BC 270:980 JLINK_IsHalted()  returns TRUE (0000ms, 0674ms total)
T2A8BC 270:980 JLINK_IsHalted()  returns TRUE (0000ms, 0674ms total)
T2A8BC 270:980 JLINK_IsHalted()  returns TRUE (0000ms, 0674ms total)
T2A8BC 270:980 JLINK_ReadReg(R15 (PC))  returns 0x000001D6 (0000ms, 0674ms total)
T2A8BC 270:980 JLINK_ReadReg(XPSR)  returns 0x61000000 (0000ms, 0674ms total)
T2A8BC 270:980 JLINK_ClrBPEx(BPHandle = 0x00000004)  returns 0x00 (0000ms, 0674ms total)
T2A8BC 270:980 JLINK_ClrBPEx(BPHandle = 0x00000005)  returns 0x00 (0000ms, 0674ms total)
T2A8BC 270:980 JLINK_ReadMemU32(0xE000ED30, 0x0001 Items, ...) -- CPU_ReadMem(4 bytes @ 0xE000ED30) - Data: 02 00 00 00  returns 0x01 (0001ms, 0675ms total)
T2A8BC 270:981 JLINK_ReadMemU32(0xE0001028, 0x0001 Items, ...) -- CPU_ReadMem(4 bytes @ 0xE0001028) - Data: 00 00 00 00  returns 0x01 (0000ms, 0675ms total)
T2A8BC 270:981 JLINK_ReadMemU32(0xE0001038, 0x0001 Items, ...) -- CPU_ReadMem(4 bytes @ 0xE0001038) - Data: 00 02 00 00  returns 0x01 (0000ms, 0675ms total)
T2A8BC 270:981 JLINK_ReadMemU32(0xE0001048, 0x0001 Items, ...) -- CPU_ReadMem(4 bytes @ 0xE0001048) - Data: 00 00 00 00  returns 0x01 (0001ms, 0676ms total)
T2A8BC 270:982 JLINK_ReadMemU32(0xE0001058, 0x0001 Items, ...) -- CPU_ReadMem(4 bytes @ 0xE0001058) - Data: 00 00 00 00  returns 0x01 (0000ms, 0676ms total)
T2A8BC 270:982 JLINK_ReadReg(R0)  returns 0x40005004 (0000ms, 0676ms total)
T2A8BC 270:982 JLINK_ReadReg(R1)  returns 0x00000000 (0000ms, 0676ms total)
T2A8BC 270:982 JLINK_ReadReg(R2)  returns 0x20010470 (0000ms, 0676ms total)
T2A8BC 270:982 JLINK_ReadReg(R3)  returns 0x00000000 (0000ms, 0676ms total)
T2A8BC 270:982 JLINK_ReadReg(R4)  returns 0x00000005 (0000ms, 0676ms total)
T2A8BC 270:982 JLINK_ReadReg(R5)  returns 0x6F77206F (0000ms, 0676ms total)
T2A8BC 270:982 JLINK_ReadReg(R6)  returns 0x21646C72 (0000ms, 0676ms total)
T2A8BC 270:982 JLINK_ReadReg(R7)  returns 0x00000000 (0000ms, 0676ms total)
T2A8BC 270:982 JLINK_ReadReg(R8)  returns 0x00000000 (0000ms, 0676ms total)
T2A8BC 270:982 JLINK_ReadReg(R9)  returns 0x00000000 (0001ms, 0677ms total)
T2A8BC 270:983 JLINK_ReadReg(R10)  returns 0x00000234 (0000ms, 0677ms total)
T2A8BC 270:983 JLINK_ReadReg(R11)  returns 0x00000000 (0000ms, 0677ms total)
T2A8BC 270:983 JLINK_ReadReg(R12)  returns 0x2001004C (0000ms, 0677ms total)
T2A8BC 270:983 JLINK_ReadReg(R13 (SP))  returns 0x2001085C (0000ms, 0677ms total)
T2A8BC 270:983 JLINK_ReadReg(R14)  returns 0x000000ED (0000ms, 0677ms total)
T2A8BC 270:983 JLINK_ReadReg(R15 (PC))  returns 0x000001D6 (0000ms, 0677ms total)
T2A8BC 270:983 JLINK_ReadReg(XPSR)  returns 0x61000000 (0000ms, 0677ms total)
T2A8BC 270:983 JLINK_ReadReg(MSP)  returns 0x2001085C (0000ms, 0677ms total)
T2A8BC 270:983 JLINK_ReadReg(PSP)  returns 0x00000000 (0000ms, 0677ms total)
T2A8BC 270:983 JLINK_ReadReg(CFBP)  returns 0x00000000 (0000ms, 0677ms total)
T279C8 270:983 JLINK_ReadMem (0x2001086C, 0x0004 Bytes, ...) -- CPU_ReadMem(4 bytes @ 0x2001086C) - Data: ED 00 00 00  returns 0x00 (0000ms, 0677ms total)
T279C8 270:983 JLINK_ReadMem (0x2001085C, 0x0010 Bytes, ...) -- CPU_ReadMem(16 bytes @ 0x2001085C) - Data: 68 65 6C 6C 6F 20 77 6F 72 6C 64 21 00 00 00 00  returns 0x00 (0001ms, 0678ms total)
T279C8 270:984 JLINK_ReadMemU32(0xE0001004, 0x0001 Items, ...) -- CPU_ReadMem(4 bytes @ 0xE0001004) - Data: DE 00 00 00  returns 0x01 (0001ms, 0679ms total)
T279C8 270:989 JLINK_ReadMem (0x000001D0, 0x003C Bytes, ...) -- CPU_ReadMem(128 bytes @ 0x000001C0) -- Updating DA cache (128 bytes @ 0x000001C0) -- Read from DA cache (60 bytes @ 0x000001D0) - Data: 03 68 00 2B FC D1 0D 48 10 38 1D F8 01 40 04 60 ...  returns 0x00 (0001ms, 0680ms total)
T2A8BC 275:988 JLINK_Step() -- Read from DA cache (2 bytes @ 0x000001D6) -- Not simulated -- CPU_WriteMem(4 bytes @ 0xE0002008) -- CPU_WriteMem(4 bytes @ 0xE000200C)  returns 0x00 (0003ms, 0683ms total)
T2A8BC 275:991 JLINK_ReadReg(R15 (PC))  returns 0x000001D8 (0000ms, 0683ms total)
T2A8BC 275:991 JLINK_ReadReg(XPSR)  returns 0x61000000 (0000ms, 0683ms total)
T2A8BC 275:991 JLINK_SetBPEx(Addr = 0x000001E6, Type = 0xFFFFFFF2)  returns 0x00000006 (0000ms, 0683ms total)
T2A8BC 275:991 JLINK_SetBPEx(Addr = 0x000001D6, Type = 0xFFFFFFF2)  returns 0x00000007 (0000ms, 0683ms total)
T2A8BC 275:991 JLINK_Go() -- CPU_WriteMem(4 bytes @ 0xE0002000) -- CPU_WriteMem(4 bytes @ 0xE0002000) -- CPU_WriteMem(4 bytes @ 0xE0002008) -- CPU_WriteMem(4 bytes @ 0xE000200C) (0002ms, 0685ms total)
T2A8BC 276:094 JLINK_IsHalted()  returns TRUE (0002ms, 0687ms total)
T2A8BC 276:096 JLINK_Halt()  returns 0x00 (0000ms, 0685ms total)
T2A8BC 276:096 JLINK_IsHalted()  returns TRUE (0000ms, 0685ms total)
T2A8BC 276:096 JLINK_IsHalted()  returns TRUE (0000ms, 0685ms total)
T2A8BC 276:096 JLINK_IsHalted()  returns TRUE (0000ms, 0685ms total)
T2A8BC 276:096 JLINK_ReadReg(R15 (PC))  returns 0x000001D6 (0000ms, 0685ms total)
T2A8BC 276:096 JLINK_ReadReg(XPSR)  returns 0x61000000 (0000ms, 0685ms total)
T2A8BC 276:096 JLINK_ClrBPEx(BPHandle = 0x00000006)  returns 0x00 (0000ms, 0685ms total)
T2A8BC 276:096 JLINK_ClrBPEx(BPHandle = 0x00000007)  returns 0x00 (0000ms, 0685ms total)
T2A8BC 276:096 JLINK_ReadMemU32(0xE000ED30, 0x0001 Items, ...) -- CPU_ReadMem(4 bytes @ 0xE000ED30) - Data: 02 00 00 00  returns 0x01 (0001ms, 0686ms total)
T2A8BC 276:097 JLINK_ReadMemU32(0xE0001028, 0x0001 Items, ...) -- CPU_ReadMem(4 bytes @ 0xE0001028) - Data: 00 00 00 00  returns 0x01 (0000ms, 0686ms total)
T2A8BC 276:097 JLINK_ReadMemU32(0xE0001038, 0x0001 Items, ...) -- CPU_ReadMem(4 bytes @ 0xE0001038) - Data: 00 02 00 00  returns 0x01 (0001ms, 0687ms total)
T2A8BC 276:098 JLINK_ReadMemU32(0xE0001048, 0x0001 Items, ...) -- CPU_ReadMem(4 bytes @ 0xE0001048) - Data: 00 00 00 00  returns 0x01 (0000ms, 0687ms total)
T2A8BC 276:098 JLINK_ReadMemU32(0xE0001058, 0x0001 Items, ...) -- CPU_ReadMem(4 bytes @ 0xE0001058) - Data: 00 00 00 00  returns 0x01 (0001ms, 0688ms total)
T2A8BC 276:099 JLINK_ReadReg(R0)  returns 0x40005004 (0000ms, 0688ms total)
T2A8BC 276:099 JLINK_ReadReg(R1)  returns 0x00000001 (0000ms, 0688ms total)
T2A8BC 276:099 JLINK_ReadReg(R2)  returns 0x20010470 (0000ms, 0688ms total)
T2A8BC 276:099 JLINK_ReadReg(R3)  returns 0x00000000 (0000ms, 0688ms total)
T2A8BC 276:099 JLINK_ReadReg(R4)  returns 0x00000068 (0000ms, 0688ms total)
T2A8BC 276:099 JLINK_ReadReg(R5)  returns 0x6F77206F (0001ms, 0689ms total)
T2A8BC 276:100 JLINK_ReadReg(R6)  returns 0x21646C72 (0000ms, 0689ms total)
T2A8BC 276:100 JLINK_ReadReg(R7)  returns 0x00000000 (0000ms, 0689ms total)
T2A8BC 276:100 JLINK_ReadReg(R8)  returns 0x00000000 (0000ms, 0689ms total)
T2A8BC 276:100 JLINK_ReadReg(R9)  returns 0x00000000 (0000ms, 0689ms total)
T2A8BC 276:100 JLINK_ReadReg(R10)  returns 0x00000234 (0000ms, 0689ms total)
T2A8BC 276:100 JLINK_ReadReg(R11)  returns 0x00000000 (0000ms, 0689ms total)
T2A8BC 276:100 JLINK_ReadReg(R12)  returns 0x2001004C (0000ms, 0689ms total)
T2A8BC 276:100 JLINK_ReadReg(R13 (SP))  returns 0x2001085C (0000ms, 0689ms total)
T2A8BC 276:100 JLINK_ReadReg(R14)  returns 0x000000ED (0000ms, 0689ms total)
T2A8BC 276:100 JLINK_ReadReg(R15 (PC))  returns 0x000001D6 (0000ms, 0689ms total)
T2A8BC 276:100 JLINK_ReadReg(XPSR)  returns 0x61000000 (0000ms, 0689ms total)
T2A8BC 276:100 JLINK_ReadReg(MSP)  returns 0x2001085C (0000ms, 0689ms total)
T2A8BC 276:100 JLINK_ReadReg(PSP)  returns 0x00000000 (0000ms, 0689ms total)
T2A8BC 276:100 JLINK_ReadReg(CFBP)  returns 0x00000000 (0000ms, 0689ms total)
T279C8 276:100 JLINK_ReadMem (0x2001086C, 0x0004 Bytes, ...) -- CPU_ReadMem(4 bytes @ 0x2001086C) - Data: ED 00 00 00  returns 0x00 (0001ms, 0690ms total)
T279C8 276:101 JLINK_ReadMem (0x2001085C, 0x0010 Bytes, ...) -- CPU_ReadMem(16 bytes @ 0x2001085C) - Data: 68 65 6C 6C 6F 20 77 6F 72 6C 64 21 00 00 00 00  returns 0x00 (0000ms, 0690ms total)
T279C8 276:101 JLINK_ReadMemU32(0xE0001004, 0x0001 Items, ...) -- CPU_ReadMem(4 bytes @ 0xE0001004) - Data: F7 00 00 00  returns 0x01 (0001ms, 0691ms total)
T2A8BC 277:349 JLINK_Step() -- CPU_ReadMem(64 bytes @ 0x000001C0) -- Updating DA cache (64 bytes @ 0x000001C0) -- Read from DA cache (2 bytes @ 0x000001D6) -- Not simulated -- CPU_WriteMem(4 bytes @ 0xE0002008) -- CPU_WriteMem(4 bytes @ 0xE000200C)  returns 0x00 (0004ms, 0695ms total)
T2A8BC 277:353 JLINK_ReadReg(R15 (PC))  returns 0x000001D8 (0000ms, 0695ms total)
T2A8BC 277:353 JLINK_ReadReg(XPSR)  returns 0x61000000 (0000ms, 0695ms total)
T2A8BC 277:353 JLINK_SetBPEx(Addr = 0x000001E6, Type = 0xFFFFFFF2)  returns 0x00000008 (0000ms, 0695ms total)
T2A8BC 277:353 JLINK_SetBPEx(Addr = 0x000001D6, Type = 0xFFFFFFF2)  returns 0x00000009 (0000ms, 0695ms total)
T2A8BC 277:354 JLINK_Go() -- CPU_WriteMem(4 bytes @ 0xE0002000) -- CPU_WriteMem(4 bytes @ 0xE0002000) -- CPU_WriteMem(4 bytes @ 0xE0002008) -- CPU_WriteMem(4 bytes @ 0xE000200C) (0001ms, 0696ms total)
T2A8BC 277:456 JLINK_IsHalted()  returns TRUE (0002ms, 0698ms total)
T2A8BC 277:458 JLINK_Halt()  returns 0x00 (0000ms, 0696ms total)
T2A8BC 277:458 JLINK_IsHalted()  returns TRUE (0000ms, 0696ms total)
T2A8BC 277:458 JLINK_IsHalted()  returns TRUE (0000ms, 0696ms total)
T2A8BC 277:458 JLINK_IsHalted()  returns TRUE (0000ms, 0696ms total)
T2A8BC 277:458 JLINK_ReadReg(R15 (PC))  returns 0x000001D6 (0000ms, 0696ms total)
T2A8BC 277:458 JLINK_ReadReg(XPSR)  returns 0x61000000 (0000ms, 0696ms total)
T2A8BC 277:458 JLINK_ClrBPEx(BPHandle = 0x00000008)  returns 0x00 (0000ms, 0696ms total)
T2A8BC 277:458 JLINK_ClrBPEx(BPHandle = 0x00000009)  returns 0x00 (0000ms, 0696ms total)
T2A8BC 277:458 JLINK_ReadMemU32(0xE000ED30, 0x0001 Items, ...) -- CPU_ReadMem(4 bytes @ 0xE000ED30) - Data: 02 00 00 00  returns 0x01 (0001ms, 0697ms total)
T2A8BC 277:459 JLINK_ReadMemU32(0xE0001028, 0x0001 Items, ...) -- CPU_ReadMem(4 bytes @ 0xE0001028) - Data: 00 00 00 00  returns 0x01 (0000ms, 0697ms total)
T2A8BC 277:459 JLINK_ReadMemU32(0xE0001038, 0x0001 Items, ...) -- CPU_ReadMem(4 bytes @ 0xE0001038) - Data: 00 02 00 00  returns 0x01 (0001ms, 0698ms total)
T2A8BC 277:460 JLINK_ReadMemU32(0xE0001048, 0x0001 Items, ...) -- CPU_ReadMem(4 bytes @ 0xE0001048) - Data: 00 00 00 00  returns 0x01 (0000ms, 0698ms total)
T2A8BC 277:460 JLINK_ReadMemU32(0xE0001058, 0x0001 Items, ...) -- CPU_ReadMem(4 bytes @ 0xE0001058) - Data: 00 00 00 00  returns 0x01 (0001ms, 0699ms total)
T2A8BC 277:461 JLINK_ReadReg(R0)  returns 0x40005004 (0000ms, 0699ms total)
T2A8BC 277:461 JLINK_ReadReg(R1)  returns 0x00000002 (0000ms, 0699ms total)
T2A8BC 277:461 JLINK_ReadReg(R2)  returns 0x20010470 (0000ms, 0699ms total)
T2A8BC 277:461 JLINK_ReadReg(R3)  returns 0x00000000 (0000ms, 0699ms total)
T2A8BC 277:461 JLINK_ReadReg(R4)  returns 0x00000065 (0001ms, 0700ms total)
T2A8BC 277:462 JLINK_ReadReg(R5)  returns 0x6F77206F (0000ms, 0700ms total)
T2A8BC 277:462 JLINK_ReadReg(R6)  returns 0x21646C72 (0000ms, 0700ms total)
T2A8BC 277:462 JLINK_ReadReg(R7)  returns 0x00000000 (0000ms, 0700ms total)
T2A8BC 277:462 JLINK_ReadReg(R8)  returns 0x00000000 (0000ms, 0700ms total)
T2A8BC 277:462 JLINK_ReadReg(R9)  returns 0x00000000 (0000ms, 0700ms total)
T2A8BC 277:462 JLINK_ReadReg(R10)  returns 0x00000234 (0000ms, 0700ms total)
T2A8BC 277:462 JLINK_ReadReg(R11)  returns 0x00000000 (0000ms, 0700ms total)
T2A8BC 277:462 JLINK_ReadReg(R12)  returns 0x2001004C (0000ms, 0700ms total)
T2A8BC 277:462 JLINK_ReadReg(R13 (SP))  returns 0x2001085C (0000ms, 0700ms total)
T2A8BC 277:462 JLINK_ReadReg(R14)  returns 0x000000ED (0000ms, 0700ms total)
T2A8BC 277:462 JLINK_ReadReg(R15 (PC))  returns 0x000001D6 (0000ms, 0700ms total)
T2A8BC 277:462 JLINK_ReadReg(XPSR)  returns 0x61000000 (0000ms, 0700ms total)
T2A8BC 277:462 JLINK_ReadReg(MSP)  returns 0x2001085C (0000ms, 0700ms total)
T2A8BC 277:462 JLINK_ReadReg(PSP)  returns 0x00000000 (0000ms, 0700ms total)
T2A8BC 277:462 JLINK_ReadReg(CFBP)  returns 0x00000000 (0000ms, 0700ms total)
T279C8 277:462 JLINK_ReadMem (0x2001086C, 0x0004 Bytes, ...) -- CPU_ReadMem(4 bytes @ 0x2001086C) - Data: ED 00 00 00  returns 0x00 (0000ms, 0700ms total)
T279C8 277:462 JLINK_ReadMem (0x2001085C, 0x0010 Bytes, ...) -- CPU_ReadMem(16 bytes @ 0x2001085C) - Data: 68 65 6C 6C 6F 20 77 6F 72 6C 64 21 00 00 00 00  returns 0x00 (0001ms, 0701ms total)
T279C8 277:463 JLINK_ReadMemU32(0xE0001004, 0x0001 Items, ...) -- CPU_ReadMem(4 bytes @ 0xE0001004) - Data: 10 01 00 00  returns 0x01 (0000ms, 0701ms total)
T2A8BC 279:047 JLINK_Step() -- CPU_ReadMem(64 bytes @ 0x000001C0) -- Updating DA cache (64 bytes @ 0x000001C0) -- Read from DA cache (2 bytes @ 0x000001D6) -- Not simulated -- CPU_WriteMem(4 bytes @ 0xE0002008) -- CPU_WriteMem(4 bytes @ 0xE000200C)  returns 0x00 (0005ms, 0706ms total)
T2A8BC 279:052 JLINK_ReadReg(R15 (PC))  returns 0x000001D8 (0000ms, 0706ms total)
T2A8BC 279:052 JLINK_ReadReg(XPSR)  returns 0x61000000 (0000ms, 0706ms total)
T2A8BC 279:052 JLINK_SetBPEx(Addr = 0x000001E6, Type = 0xFFFFFFF2)  returns 0x0000000A (0000ms, 0706ms total)
T2A8BC 279:052 JLINK_SetBPEx(Addr = 0x000001D6, Type = 0xFFFFFFF2)  returns 0x0000000B (0000ms, 0706ms total)
T2A8BC 279:052 JLINK_Go() -- CPU_WriteMem(4 bytes @ 0xE0002000) -- CPU_WriteMem(4 bytes @ 0xE0002000) -- CPU_WriteMem(4 bytes @ 0xE0002008) -- CPU_WriteMem(4 bytes @ 0xE000200C) (0002ms, 0708ms total)
T2A8BC 279:155 JLINK_IsHalted()  returns TRUE (0002ms, 0710ms total)
T2A8BC 279:157 JLINK_Halt()  returns 0x00 (0000ms, 0708ms total)
T2A8BC 279:157 JLINK_IsHalted()  returns TRUE (0000ms, 0708ms total)
T2A8BC 279:157 JLINK_IsHalted()  returns TRUE (0000ms, 0708ms total)
T2A8BC 279:157 JLINK_IsHalted()  returns TRUE (0000ms, 0708ms total)
T2A8BC 279:157 JLINK_ReadReg(R15 (PC))  returns 0x000001D6 (0000ms, 0708ms total)
T2A8BC 279:157 JLINK_ReadReg(XPSR)  returns 0x61000000 (0000ms, 0708ms total)
T2A8BC 279:157 JLINK_ClrBPEx(BPHandle = 0x0000000A)  returns 0x00 (0000ms, 0708ms total)
T2A8BC 279:157 JLINK_ClrBPEx(BPHandle = 0x0000000B)  returns 0x00 (0000ms, 0708ms total)
T2A8BC 279:157 JLINK_ReadMemU32(0xE000ED30, 0x0001 Items, ...) -- CPU_ReadMem(4 bytes @ 0xE000ED30) - Data: 02 00 00 00  returns 0x01 (0001ms, 0709ms total)
T2A8BC 279:158 JLINK_ReadMemU32(0xE0001028, 0x0001 Items, ...) -- CPU_ReadMem(4 bytes @ 0xE0001028) - Data: 00 00 00 00  returns 0x01 (0000ms, 0709ms total)
T2A8BC 279:158 JLINK_ReadMemU32(0xE0001038, 0x0001 Items, ...) -- CPU_ReadMem(4 bytes @ 0xE0001038) - Data: 00 02 00 00  returns 0x01 (0001ms, 0710ms total)
T2A8BC 279:159 JLINK_ReadMemU32(0xE0001048, 0x0001 Items, ...) -- CPU_ReadMem(4 bytes @ 0xE0001048) - Data: 00 00 00 00  returns 0x01 (0000ms, 0710ms total)
T2A8BC 279:159 JLINK_ReadMemU32(0xE0001058, 0x0001 Items, ...) -- CPU_ReadMem(4 bytes @ 0xE0001058) - Data: 00 00 00 00  returns 0x01 (0000ms, 0710ms total)
T2A8BC 279:159 JLINK_ReadReg(R0)  returns 0x40005004 (0000ms, 0710ms total)
T2A8BC 279:159 JLINK_ReadReg(R1)  returns 0x00000003 (0001ms, 0711ms total)
T2A8BC 279:160 JLINK_ReadReg(R2)  returns 0x20010470 (0000ms, 0711ms total)
T2A8BC 279:160 JLINK_ReadReg(R3)  returns 0x00000000 (0000ms, 0711ms total)
T2A8BC 279:160 JLINK_ReadReg(R4)  returns 0x0000006C (0000ms, 0711ms total)
T2A8BC 279:160 JLINK_ReadReg(R5)  returns 0x6F77206F (0000ms, 0711ms total)
T2A8BC 279:160 JLINK_ReadReg(R6)  returns 0x21646C72 (0000ms, 0711ms total)
T2A8BC 279:160 JLINK_ReadReg(R7)  returns 0x00000000 (0000ms, 0711ms total)
T2A8BC 279:160 JLINK_ReadReg(R8)  returns 0x00000000 (0000ms, 0711ms total)
T2A8BC 279:160 JLINK_ReadReg(R9)  returns 0x00000000 (0000ms, 0711ms total)
T2A8BC 279:160 JLINK_ReadReg(R10)  returns 0x00000234 (0000ms, 0711ms total)
T2A8BC 279:160 JLINK_ReadReg(R11)  returns 0x00000000 (0000ms, 0711ms total)
T2A8BC 279:160 JLINK_ReadReg(R12)  returns 0x2001004C (0000ms, 0711ms total)
T2A8BC 279:160 JLINK_ReadReg(R13 (SP))  returns 0x2001085C (0000ms, 0711ms total)
T2A8BC 279:160 JLINK_ReadReg(R14)  returns 0x000000ED (0000ms, 0711ms total)
T2A8BC 279:160 JLINK_ReadReg(R15 (PC))  returns 0x000001D6 (0000ms, 0711ms total)
T2A8BC 279:160 JLINK_ReadReg(XPSR)  returns 0x61000000 (0000ms, 0711ms total)
T2A8BC 279:160 JLINK_ReadReg(MSP)  returns 0x2001085C (0000ms, 0711ms total)
T2A8BC 279:160 JLINK_ReadReg(PSP)  returns 0x00000000 (0000ms, 0711ms total)
T2A8BC 279:160 JLINK_ReadReg(CFBP)  returns 0x00000000 (0000ms, 0711ms total)
T279C8 279:160 JLINK_ReadMem (0x2001086C, 0x0004 Bytes, ...) -- CPU_ReadMem(4 bytes @ 0x2001086C) - Data: ED 00 00 00  returns 0x00 (0000ms, 0711ms total)
T279C8 279:160 JLINK_ReadMem (0x2001085C, 0x0010 Bytes, ...) -- CPU_ReadMem(16 bytes @ 0x2001085C) - Data: 68 65 6C 6C 6F 20 77 6F 72 6C 64 21 00 00 00 00  returns 0x00 (0001ms, 0712ms total)
T279C8 279:161 JLINK_ReadMemU32(0xE0001004, 0x0001 Items, ...) -- CPU_ReadMem(4 bytes @ 0xE0001004) - Data: 29 01 00 00  returns 0x01 (0001ms, 0713ms total)
T2A8BC 283:672 JLINK_Step() -- CPU_ReadMem(64 bytes @ 0x000001C0) -- Updating DA cache (64 bytes @ 0x000001C0) -- Read from DA cache (2 bytes @ 0x000001D6) -- Not simulated -- CPU_WriteMem(4 bytes @ 0xE0002008) -- CPU_WriteMem(4 bytes @ 0xE000200C)  returns 0x00 (0004ms, 0717ms total)
T2A8BC 283:676 JLINK_ReadReg(R15 (PC))  returns 0x000001D8 (0000ms, 0717ms total)
T2A8BC 283:676 JLINK_ReadReg(XPSR)  returns 0x61000000 (0000ms, 0717ms total)
T2A8BC 283:676 JLINK_SetBPEx(Addr = 0x000001E6, Type = 0xFFFFFFF2)  returns 0x0000000C (0000ms, 0717ms total)
T2A8BC 283:676 JLINK_SetBPEx(Addr = 0x000001D6, Type = 0xFFFFFFF2)  returns 0x0000000D (0000ms, 0717ms total)
T2A8BC 283:676 JLINK_Go() -- CPU_WriteMem(4 bytes @ 0xE0002000) -- CPU_WriteMem(4 bytes @ 0xE0002000) -- CPU_WriteMem(4 bytes @ 0xE0002008) -- CPU_WriteMem(4 bytes @ 0xE000200C) (0002ms, 0719ms total)
T2A8BC 283:778 JLINK_IsHalted()  returns TRUE (0002ms, 0721ms total)
T2A8BC 283:780 JLINK_Halt()  returns 0x00 (0000ms, 0719ms total)
T2A8BC 283:780 JLINK_IsHalted()  returns TRUE (0000ms, 0719ms total)
T2A8BC 283:780 JLINK_IsHalted()  returns TRUE (0000ms, 0719ms total)
T2A8BC 283:780 JLINK_IsHalted()  returns TRUE (0000ms, 0719ms total)
T2A8BC 283:780 JLINK_ReadReg(R15 (PC))  returns 0x000001D6 (0000ms, 0719ms total)
T2A8BC 283:780 JLINK_ReadReg(XPSR)  returns 0x61000000 (0000ms, 0719ms total)
T2A8BC 283:780 JLINK_ClrBPEx(BPHandle = 0x0000000C)  returns 0x00 (0000ms, 0719ms total)
T2A8BC 283:780 JLINK_ClrBPEx(BPHandle = 0x0000000D)  returns 0x00 (0000ms, 0719ms total)
T2A8BC 283:780 JLINK_ReadMemU32(0xE000ED30, 0x0001 Items, ...) -- CPU_ReadMem(4 bytes @ 0xE000ED30) - Data: 02 00 00 00  returns 0x01 (0000ms, 0719ms total)
T2A8BC 283:780 JLINK_ReadMemU32(0xE0001028, 0x0001 Items, ...) -- CPU_ReadMem(4 bytes @ 0xE0001028) - Data: 00 00 00 00  returns 0x01 (0001ms, 0720ms total)
T2A8BC 283:781 JLINK_ReadMemU32(0xE0001038, 0x0001 Items, ...) -- CPU_ReadMem(4 bytes @ 0xE0001038) - Data: 00 02 00 00  returns 0x01 (0000ms, 0720ms total)
T2A8BC 283:781 JLINK_ReadMemU32(0xE0001048, 0x0001 Items, ...) -- CPU_ReadMem(4 bytes @ 0xE0001048) - Data: 00 00 00 00  returns 0x01 (0000ms, 0720ms total)
T2A8BC 283:781 JLINK_ReadMemU32(0xE0001058, 0x0001 Items, ...) -- CPU_ReadMem(4 bytes @ 0xE0001058) - Data: 00 00 00 00  returns 0x01 (0000ms, 0720ms total)
T2A8BC 283:782 JLINK_ReadReg(R0)  returns 0x40005004 (0000ms, 0721ms total)
T2A8BC 283:782 JLINK_ReadReg(R1)  returns 0x00000004 (0000ms, 0721ms total)
T2A8BC 283:782 JLINK_ReadReg(R2)  returns 0x20010470 (0000ms, 0721ms total)
T2A8BC 283:782 JLINK_ReadReg(R3)  returns 0x00000000 (0000ms, 0721ms total)
T2A8BC 283:782 JLINK_ReadReg(R4)  returns 0x0000006C (0000ms, 0721ms total)
T2A8BC 283:782 JLINK_ReadReg(R5)  returns 0x6F77206F (0000ms, 0721ms total)
T2A8BC 283:782 JLINK_ReadReg(R6)  returns 0x21646C72 (0000ms, 0721ms total)
T2A8BC 283:782 JLINK_ReadReg(R7)  returns 0x00000000 (0000ms, 0721ms total)
T2A8BC 283:782 JLINK_ReadReg(R8)  returns 0x00000000 (0000ms, 0721ms total)
T2A8BC 283:782 JLINK_ReadReg(R9)  returns 0x00000000 (0000ms, 0721ms total)
T2A8BC 283:782 JLINK_ReadReg(R10)  returns 0x00000234 (0000ms, 0721ms total)
T2A8BC 283:782 JLINK_ReadReg(R11)  returns 0x00000000 (0000ms, 0721ms total)
T2A8BC 283:782 JLINK_ReadReg(R12)  returns 0x2001004C (0000ms, 0721ms total)
T2A8BC 283:782 JLINK_ReadReg(R13 (SP))  returns 0x2001085C (0000ms, 0721ms total)
T2A8BC 283:782 JLINK_ReadReg(R14)  returns 0x000000ED (0000ms, 0721ms total)
T2A8BC 283:782 JLINK_ReadReg(R15 (PC))  returns 0x000001D6 (0000ms, 0721ms total)
T2A8BC 283:782 JLINK_ReadReg(XPSR)  returns 0x61000000 (0000ms, 0721ms total)
T2A8BC 283:782 JLINK_ReadReg(MSP)  returns 0x2001085C (0000ms, 0721ms total)
T2A8BC 283:782 JLINK_ReadReg(PSP)  returns 0x00000000 (0000ms, 0721ms total)
T2A8BC 283:782 JLINK_ReadReg(CFBP)  returns 0x00000000 (0000ms, 0721ms total)
T279C8 283:782 JLINK_ReadMem (0x2001086C, 0x0004 Bytes, ...) -- CPU_ReadMem(4 bytes @ 0x2001086C) - Data: ED 00 00 00  returns 0x00 (0001ms, 0722ms total)
T279C8 283:783 JLINK_ReadMem (0x2001085C, 0x0010 Bytes, ...) -- CPU_ReadMem(16 bytes @ 0x2001085C) - Data: 68 65 6C 6C 6F 20 77 6F 72 6C 64 21 00 00 00 00  returns 0x00 (0000ms, 0722ms total)
T279C8 283:783 JLINK_ReadMemU32(0xE0001004, 0x0001 Items, ...) -- CPU_ReadMem(4 bytes @ 0xE0001004) - Data: 42 01 00 00  returns 0x01 (0000ms, 0722ms total)
T2A8BC 284:672 JLINK_Step() -- CPU_ReadMem(64 bytes @ 0x000001C0) -- Updating DA cache (64 bytes @ 0x000001C0) -- Read from DA cache (2 bytes @ 0x000001D6) -- Not simulated -- CPU_WriteMem(4 bytes @ 0xE0002008) -- CPU_WriteMem(4 bytes @ 0xE000200C)  returns 0x00 (0004ms, 0726ms total)
T2A8BC 284:676 JLINK_ReadReg(R15 (PC))  returns 0x000001D8 (0001ms, 0727ms total)
T2A8BC 284:677 JLINK_ReadReg(XPSR)  returns 0x61000000 (0000ms, 0727ms total)
T2A8BC 284:677 JLINK_SetBPEx(Addr = 0x000001E6, Type = 0xFFFFFFF2)  returns 0x0000000E (0000ms, 0727ms total)
T2A8BC 284:677 JLINK_SetBPEx(Addr = 0x000001D6, Type = 0xFFFFFFF2)  returns 0x0000000F (0000ms, 0727ms total)
T2A8BC 284:677 JLINK_Go() -- CPU_WriteMem(4 bytes @ 0xE0002000) -- CPU_WriteMem(4 bytes @ 0xE0002000) -- CPU_WriteMem(4 bytes @ 0xE0002008) -- CPU_WriteMem(4 bytes @ 0xE000200C) (0001ms, 0728ms total)
T2A8BC 284:779 JLINK_IsHalted()  returns TRUE (0002ms, 0730ms total)
T2A8BC 284:781 JLINK_Halt()  returns 0x00 (0000ms, 0728ms total)
T2A8BC 284:781 JLINK_IsHalted()  returns TRUE (0000ms, 0728ms total)
T2A8BC 284:781 JLINK_IsHalted()  returns TRUE (0000ms, 0728ms total)
T2A8BC 284:781 JLINK_IsHalted()  returns TRUE (0000ms, 0728ms total)
T2A8BC 284:781 JLINK_ReadReg(R15 (PC))  returns 0x000001D6 (0000ms, 0728ms total)
T2A8BC 284:781 JLINK_ReadReg(XPSR)  returns 0x61000000 (0000ms, 0728ms total)
T2A8BC 284:781 JLINK_ClrBPEx(BPHandle = 0x0000000E)  returns 0x00 (0000ms, 0728ms total)
T2A8BC 284:781 JLINK_ClrBPEx(BPHandle = 0x0000000F)  returns 0x00 (0000ms, 0728ms total)
T2A8BC 284:781 JLINK_ReadMemU32(0xE000ED30, 0x0001 Items, ...) -- CPU_ReadMem(4 bytes @ 0xE000ED30) - Data: 02 00 00 00  returns 0x01 (0000ms, 0728ms total)
T2A8BC 284:781 JLINK_ReadMemU32(0xE0001028, 0x0001 Items, ...) -- CPU_ReadMem(4 bytes @ 0xE0001028) - Data: 00 00 00 00  returns 0x01 (0001ms, 0729ms total)
T2A8BC 284:782 JLINK_ReadMemU32(0xE0001038, 0x0001 Items, ...) -- CPU_ReadMem(4 bytes @ 0xE0001038) - Data: 00 02 00 00  returns 0x01 (0000ms, 0729ms total)
T2A8BC 284:782 JLINK_ReadMemU32(0xE0001048, 0x0001 Items, ...) -- CPU_ReadMem(4 bytes @ 0xE0001048) - Data: 00 00 00 00  returns 0x01 (0000ms, 0729ms total)
T2A8BC 284:782 JLINK_ReadMemU32(0xE0001058, 0x0001 Items, ...) -- CPU_ReadMem(4 bytes @ 0xE0001058) - Data: 00 00 00 00  returns 0x01 (0001ms, 0730ms total)
T2A8BC 284:783 JLINK_ReadReg(R0)  returns 0x40005004 (0000ms, 0730ms total)
T2A8BC 284:783 JLINK_ReadReg(R1)  returns 0x00000005 (0000ms, 0730ms total)
T2A8BC 284:783 JLINK_ReadReg(R2)  returns 0x20010470 (0000ms, 0730ms total)
T2A8BC 284:783 JLINK_ReadReg(R3)  returns 0x00000000 (0000ms, 0730ms total)
T2A8BC 284:783 JLINK_ReadReg(R4)  returns 0x0000006F (0000ms, 0730ms total)
T2A8BC 284:783 JLINK_ReadReg(R5)  returns 0x6F77206F (0000ms, 0730ms total)
T2A8BC 284:783 JLINK_ReadReg(R6)  returns 0x21646C72 (0000ms, 0730ms total)
T2A8BC 284:783 JLINK_ReadReg(R7)  returns 0x00000000 (0000ms, 0730ms total)
T2A8BC 284:783 JLINK_ReadReg(R8)  returns 0x00000000 (0000ms, 0730ms total)
T2A8BC 284:783 JLINK_ReadReg(R9)  returns 0x00000000 (0000ms, 0730ms total)
T2A8BC 284:783 JLINK_ReadReg(R10)  returns 0x00000234 (0000ms, 0730ms total)
T2A8BC 284:783 JLINK_ReadReg(R11)  returns 0x00000000 (0000ms, 0730ms total)
T2A8BC 284:783 JLINK_ReadReg(R12)  returns 0x2001004C (0000ms, 0730ms total)
T2A8BC 284:783 JLINK_ReadReg(R13 (SP))  returns 0x2001085C (0000ms, 0730ms total)
T2A8BC 284:783 JLINK_ReadReg(R14)  returns 0x000000ED (0000ms, 0730ms total)
T2A8BC 284:783 JLINK_ReadReg(R15 (PC))  returns 0x000001D6 (0000ms, 0730ms total)
T2A8BC 284:783 JLINK_ReadReg(XPSR)  returns 0x61000000 (0000ms, 0730ms total)
T2A8BC 284:783 JLINK_ReadReg(MSP)  returns 0x2001085C (0000ms, 0730ms total)
T2A8BC 284:783 JLINK_ReadReg(PSP)  returns 0x00000000 (0000ms, 0730ms total)
T2A8BC 284:783 JLINK_ReadReg(CFBP)  returns 0x00000000 (0000ms, 0730ms total)
T279C8 284:783 JLINK_ReadMem (0x2001086C, 0x0004 Bytes, ...) -- CPU_ReadMem(4 bytes @ 0x2001086C) - Data: ED 00 00 00  returns 0x00 (0001ms, 0731ms total)
T279C8 284:784 JLINK_ReadMem (0x2001085C, 0x0010 Bytes, ...) -- CPU_ReadMem(16 bytes @ 0x2001085C) - Data: 68 65 6C 6C 6F 20 77 6F 72 6C 64 21 00 00 00 00  returns 0x00 (0000ms, 0731ms total)
T279C8 284:784 JLINK_ReadMemU32(0xE0001004, 0x0001 Items, ...) -- CPU_ReadMem(4 bytes @ 0xE0001004) - Data: 5B 01 00 00  returns 0x01 (0000ms, 0731ms total)
